T050C 6787:432 SEGGER J-Link V6.30h Log File (0001ms, 137269ms total)
T050C 6787:432 DLL Compiled: Mar 16 2018 18:02:51 (0001ms, 137269ms total)
T050C 6787:432 Logging started @ 2020-12-12 11:23 (0001ms, 137269ms total)
T050C 6787:433 JLINK_SetWarnOutHandler(...) (0000ms, 137269ms total)
T050C 6787:433 JLINK_OpenEx(...)
Firmware: J-Link V9 compiled Oct 25 2018 11:46:07
Hardware: V9.40
S/N: 59401576
Feature(s): RDI, GDB, FlashDL, FlashBP, JFlash
TELNET listener socket opened on port 19021WEBSRV 
Starting webserver (0092ms, 137361ms total)
T050C 6787:433 WEBSRV Webserver running on local port 19080 (0092ms, 137361ms total)
T050C 6787:433   returns O.K. (0092ms, 137361ms total)
T050C 6787:525 JLINK_GetEmuCaps()  returns 0xB9FF7BBF (0000ms, 137361ms total)
T050C 6787:527 JLINK_TIF_GetAvailable(...) (0001ms, 137362ms total)
T050C 6787:528 JLINK_SetErrorOutHandler(...) (0000ms, 137362ms total)
T050C 6787:528 JLINK_ExecCommand("ProjectFile = "F:\JK525N\Project\RVMDK£¨uv5£©\JLinkSettings.ini"", ...).   returns 0x00 (0002ms, 137364ms total)
T050C 6787:530 JLINK_ExecCommand("Device = STM32F429IGTx", ...). Device "STM32F429IG" selected.  returns 0x00 (0001ms, 137365ms total)
T050C 6787:531 JLINK_ExecCommand("DisableConnectionTimeout", ...).   returns 0x01 (0000ms, 137365ms total)
T050C 6787:531 JLINK_GetHardwareVersion()  returns 0x16F30 (0000ms, 137365ms total)
T050C 6787:531 JLINK_GetDLLVersion()  returns 63008 (0000ms, 137365ms total)
T050C 6787:531 JLINK_GetFirmwareString(...) (0000ms, 137365ms total)
T050C 6787:531 JLINK_GetDLLVersion()  returns 63008 (0000ms, 137365ms total)
T050C 6787:531 JLINK_GetCompileDateTime() (0000ms, 137365ms total)
T050C 6787:531 JLINK_GetFirmwareString(...) (0000ms, 137365ms total)
T050C 6787:531 JLINK_GetHardwareVersion()  returns 0x16F30 (0000ms, 137365ms total)
T050C 6787:531 JLINK_TIF_Select(JLINKARM_TIF_SWD)  returns 0x00 (0005ms, 137370ms total)
T050C 6787:536 JLINK_SetSpeed(10000) (0000ms, 137370ms total)
T050C 6787:536 JLINK_GetId() >0x10B TIF>Found SW-DP with ID 0x2BA01477 >0x0D TIF> >0x28 TIF> >0x0D TIF> >0x28 TIF> >0x0D TIF> >0x28 TIF> >0x0D TIF> >0x28 TIF> >0x0D TIF> >0x21 TIF> >0x0D TIF> >0x28 TIF> >0x0D TIF> >0x28 TIF> >0x0D TIF> >0x28 TIF> >0x0D TIF> >0x21 TIF> >0x0D TIF> >0x21 TIF> >0x0D TIF> >0x28 TIF> >0x0D TIF> >0x21 TIF> >0x0D TIF> >0x21 TIF> >0x0D TIF> >0x28 TIF> >0x0D TIF> >0x28 TIF> >0x0D TIF> >0x28 TIF> >0x0D TIF> >0x21 TIF> >0x0D TIF> >0x21 TIF> >0x0D TIF> >0x28 TIF> >0x0D TIF>
 >0x28 TIF> >0x0D TIF> >0x28 TIF> >0x0D TIF> >0x21 TIF> >0x0D TIF> >0x21 TIF> >0x0D TIF> >0x28 TIF> >0x0D TIF> >0x21 TIF> >0x0D TIF> >0x21 TIF> >0x0D TIF> >0x28 TIF> >0x0D TIF> >0x21 TIF> >0x0D TIF> >0x21 TIF> >0x0D TIF> >0x28 TIF> >0x0D TIF> >0x21 TIF> >0x0D TIF> >0x21 TIF> >0x10B TIF>Found SW-DP with ID 0x2BA01477 >0x0D TIF> >0x28 TIF> >0x0D TIF> >0x28 TIF> >0x0D TIF> >0x28 TIF> >0x0D TIF> >0x28 TIF> >0x0D TIF> >0x21 TIF> >0x0D TIF> >0x28 TIF>Scanning AP map to find all available APs >0x0D TIF>
 >0x28 TIF> >0x0D TIF> >0x21 TIF> >0x0D TIF> >0x21 TIF> >0x0D TIF> >0x28 TIF> >0x0D TIF> >0x21 TIF> >0x0D TIF> >0x21 TIF>AP[1]: Stopped AP scan as end of AP map has been reachedAP[0]: AHB-AP (IDR: 0x24770011)Iterating through AP map to find AHB-AP to use >0x42 TIF> >0x28 TIF> >0x0D TIF> >0x28 TIF> >0x0D TIF> >0x21 TIF> >0x0D TIF> >0x21 TIF> >0x42 TIF> >0x28 TIF> >0x0D TIF> >0x28 TIF> >0x0D TIF> >0x28 TIF> >0x0D TIF> >0x21 TIF> >0x0D TIF> >0x21 TIF>AP[0]: Core foundAP[0]: AHB-AP ROM base: 0xE00FF000
 >0x0D TIF> >0x28 TIF> >0x0D TIF> >0x28 TIF> >0x0D TIF> >0x28 TIF> >0x0D TIF> >0x21 TIF> >0x0D TIF> >0x21 TIF>CPUID register: 0x410FC241. Implementer code: 0x41 (ARM)Found Cortex-M4 r0p1, Little endian. -- CPU_ReadMem(4 bytes @ 0xE000EDF0) -- CPU_WriteMem(4 bytes @ 0xE000EDF0) -- CPU_ReadMem(4 bytes @ 0xE0002000)FPUnit: 6 code (BP) slots and 2 literal slots -- CPU_ReadMem(4 bytes @ 0xE000EDFC) -- CPU_WriteMem(4 bytes @ 0xE000EDFC) -- CPU_ReadMem(4 bytes @ 0xE0001000) -- CPU_WriteMem(4 bytes @ 0xE0001000)
 -- CPU_ReadMem(4 bytes @ 0xE000ED88) -- CPU_WriteMem(4 bytes @ 0xE000ED88) -- CPU_ReadMem(4 bytes @ 0xE000ED88) -- CPU_WriteMem(4 bytes @ 0xE000ED88)CoreSight components:ROMTbl[0] @ E00FF000 -- CPU_ReadMem(16 bytes @ 0xE00FF000) -- CPU_ReadMem(16 bytes @ 0xE000EFF0) -- CPU_ReadMem(16 bytes @ 0xE000EFE0)ROMTbl[0][0]: E000E000, CID: B105E00D, PID: 000BB00C SCS-M7 -- CPU_ReadMem(16 bytes @ 0xE0001FF0) -- CPU_ReadMem(16 bytes @ 0xE0001FE0)ROMTbl[0][1]: E0001000, CID: B105E00D, PID: 003BB002 DWT
 -- CPU_ReadMem(16 bytes @ 0xE0002FF0) -- CPU_ReadMem(16 bytes @ 0xE0002FE0)ROMTbl[0][2]: E0002000, CID: B105E00D, PID: 002BB003 FPB -- CPU_ReadMem(16 bytes @ 0xE0000FF0) -- CPU_ReadMem(16 bytes @ 0xE0000FE0)ROMTbl[0][3]: E0000000, CID: B105E00D, PID: 003BB001 ITM -- CPU_ReadMem(16 bytes @ 0xE00FF010) -- CPU_ReadMem(16 bytes @ 0xE0040FF0) -- CPU_ReadMem(16 bytes @ 0xE0040FE0)ROMTbl[0][4]: E0040000, CID: B105900D, PID: 000BB9A1 TPIU -- CPU_ReadMem(16 bytes @ 0xE0041FF0)
 -- CPU_ReadMem(16 bytes @ 0xE0041FE0)ROMTbl[0][5]: E0041000, CID: B105900D, PID: 000BB925 ETM >0x0D TIF> >0x21 TIF>  returns 0x2BA01477 (0258ms, 137628ms total)
T050C 6787:794 JLINK_GetDLLVersion()  returns 63008 (0000ms, 137628ms total)
T050C 6787:794 JLINK_CORE_GetFound()  returns 0xE0000FF (0000ms, 137628ms total)
T050C 6787:794 JLINK_GetDebugInfo(0x100 = JLINKARM_ROM_TABLE_ADDR_INDEX) -- Value=0xE00FF000  returns 0x00 (0000ms, 137628ms total)
T050C 6787:794 JLINK_GetDebugInfo(0x100 = JLINKARM_ROM_TABLE_ADDR_INDEX) -- Value=0xE00FF000  returns 0x00 (0000ms, 137628ms total)
T050C 6787:794 JLINK_GetDebugInfo(0x101 = JLINKARM_DEBUG_INFO_ETM_ADDR_INDEX) -- Value=0xE0041000  returns 0x00 (0000ms, 137628ms total)
T050C 6787:794 JLINK_ReadMemEx(0xE0041FD0, 0x0020 Bytes, ..., Flags = 0x02000004) -- CPU_ReadMem(32 bytes @ 0xE0041FD0) - Data: 04 00 00 00 00 00 00 00 00 00 00 00 00 00 00 00 ...  returns 0x20 (0001ms, 137629ms total)
T050C 6787:795 JLINK_GetDebugInfo(0x102 = JLINKARM_DEBUG_INFO_MTB_ADDR_INDEX) -- Value=0x00000000  returns 0x00 (0000ms, 137629ms total)
T050C 6787:795 JLINK_GetDebugInfo(0x103 = JLINKARM_DEBUG_INFO_TPIU_ADDR_INDEX) -- Value=0xE0040000  returns 0x00 (0000ms, 137629ms total)
T050C 6787:795 JLINK_GetDebugInfo(0x104 = JLINKARM_DEBUG_INFO_ITM_ADDR_INDEX) -- Value=0xE0000000  returns 0x00 (0000ms, 137629ms total)
T050C 6787:795 JLINK_GetDebugInfo(0x105 = JLINKARM_DEBUG_INFO_DWT_ADDR_INDEX) -- Value=0xE0001000  returns 0x00 (0000ms, 137629ms total)
T050C 6787:795 JLINK_GetDebugInfo(0x106 = JLINKARM_DEBUG_INFO_FPB_ADDR_INDEX) -- Value=0xE0002000  returns 0x00 (0000ms, 137629ms total)
T050C 6787:795 JLINK_GetDebugInfo(0x107 = JLINKARM_DEBUG_INFO_NVIC_ADDR_INDEX) -- Value=0xE000E000  returns 0x00 (0000ms, 137629ms total)
T050C 6787:795 JLINK_GetDebugInfo(0x10C = JLINKARM_DEBUG_INFO_DBG_ADDR_INDEX) -- Value=0xE000EDF0  returns 0x00 (0000ms, 137629ms total)
T050C 6787:795 JLINK_GetDebugInfo(0x01 = Unknown) -- Value=0x00000001  returns 0x00 (0000ms, 137629ms total)
T050C 6787:795 JLINK_ReadMemU32(0xE000ED00, 0x0001 Items, ...) -- CPU_ReadMem(4 bytes @ 0xE000ED00) - Data: 41 C2 0F 41  returns 0x01 (0001ms, 137630ms total)
T050C 6787:796 JLINK_GetDebugInfo(0x10F = JLINKARM_DEBUG_INFO_HAS_CORTEX_M_SECURITY_EXT_INDEX) -- Value=0x00000000  returns 0x00 (0000ms, 137630ms total)
T050C 6787:796 JLINK_SetResetType(JLINKARM_CM3_RESET_TYPE_NORMAL)  returns JLINKARM_CM3_RESET_TYPE_NORMAL (0000ms, 137630ms total)
T050C 6787:796 JLINK_Reset() -- CPU is running -- CPU_WriteMem(4 bytes @ 0xE000EDF0) -- CPU is running -- CPU_WriteMem(4 bytes @ 0xE000EDFC)Reset: Halt core after reset via DEMCR.VC_CORERESET. >0x35 TIF>Reset: Reset device via AIRCR.SYSRESETREQ. -- CPU is running -- CPU_WriteMem(4 bytes @ 0xE000ED0C) >0x0D TIF> >0x28 TIF> -- CPU_ReadMem(4 bytes @ 0xE000EDF0) -- CPU_ReadMem(4 bytes @ 0xE000EDF0) -- CPU is running -- CPU_WriteMem(4 bytes @ 0xE000EDF0) -- CPU is running -- CPU_WriteMem(4 bytes @ 0xE000EDFC)
 -- CPU_ReadMem(4 bytes @ 0xE000EDF0) -- CPU_WriteMem(4 bytes @ 0xE0002000) -- CPU_ReadMem(4 bytes @ 0xE000EDFC) -- CPU_ReadMem(4 bytes @ 0xE0001000) (0075ms, 137705ms total)
T050C 6787:871 JLINK_ReadReg(R15 (PC))  returns 0x080001C0 (0000ms, 137705ms total)
T050C 6787:871 JLINK_ReadReg(XPSR)  returns 0x01000000 (0000ms, 137705ms total)
T050C 6787:871 JLINK_Halt()  returns 0x00 (0000ms, 137705ms total)
T050C 6787:871 JLINK_ReadMemU32(0xE000EDF0, 0x0001 Items, ...) -- CPU_ReadMem(4 bytes @ 0xE000EDF0) - Data: 03 00 03 00  returns 0x01 (0001ms, 137706ms total)
T050C 6787:872 JLINK_WriteU32(0xE000EDF0, 0xA05F0003) -- CPU_WriteMem(4 bytes @ 0xE000EDF0)  returns 0x00 (0001ms, 137707ms total)
T050C 6787:873 JLINK_WriteU32(0xE000EDFC, 0x01000000) -- CPU_WriteMem(4 bytes @ 0xE000EDFC)  returns 0x00 (0001ms, 137708ms total)
T050C 6787:874 JLINK_GetHWStatus(...)  returns 0x00 (0001ms, 137709ms total)
T050C 6787:875 JLINK_GetNumBPUnits(Type = 0xFFFFFF00)  returns 0x06 (0000ms, 137709ms total)
T050C 6787:875 JLINK_GetNumBPUnits(Type = 0xF0)  returns 0x2000 (0000ms, 137709ms total)
T050C 6787:875 JLINK_GetNumWPUnits()  returns 0x04 (0000ms, 137709ms total)
T050C 6787:875 JLINK_GetSpeed()  returns 0x1770 (0000ms, 137709ms total)
T050C 6787:875 JLINK_ReadMemU32(0xE000E004, 0x0001 Items, ...) -- CPU_ReadMem(4 bytes @ 0xE000E004) - Data: 02 00 00 00  returns 0x01 (0001ms, 137710ms total)
T050C 6787:876 JLINK_ReadMemU32(0xE000E004, 0x0001 Items, ...) -- CPU_ReadMem(4 bytes @ 0xE000E004) - Data: 02 00 00 00  returns 0x01 (0001ms, 137711ms total)
T050C 6787:877 JLINK_WriteMemEx(0xE0001000, 0x001C Bytes, ..., Flags = 0x02000004) - Data: 01 00 00 00 00 00 00 00 00 00 00 00 00 00 00 00 ... -- CPU_WriteMem(28 bytes @ 0xE0001000)  returns 0x1C (0002ms, 137713ms total)
T050C 6787:879 JLINK_ReadReg(R15 (PC))  returns 0x080001C0 (0000ms, 137713ms total)
T050C 6787:879 JLINK_ReadReg(XPSR)  returns 0x01000000 (0000ms, 137713ms total)
T050C 6788:060 JLINK_SetResetType(JLINKARM_CM3_RESET_TYPE_NORMAL)  returns JLINKARM_CM3_RESET_TYPE_NORMAL (0000ms, 137713ms total)
T050C 6788:060 JLINK_Reset() -- CPU_WriteMem(4 bytes @ 0xE000EDF0) -- CPU_WriteMem(4 bytes @ 0xE000EDFC)Reset: Halt core after reset via DEMCR.VC_CORERESET. >0x35 TIF>Reset: Reset device via AIRCR.SYSRESETREQ. -- CPU_WriteMem(4 bytes @ 0xE000ED0C) >0x0D TIF> >0x28 TIF> -- CPU_ReadMem(4 bytes @ 0xE000EDF0) -- CPU_ReadMem(4 bytes @ 0xE000EDF0) -- CPU_WriteMem(4 bytes @ 0xE000EDF0) -- CPU_WriteMem(4 bytes @ 0xE000EDFC) -- CPU_ReadMem(4 bytes @ 0xE000EDF0) -- CPU_WriteMem(4 bytes @ 0xE0002000)
 -- CPU_ReadMem(4 bytes @ 0xE000EDFC) -- CPU_ReadMem(4 bytes @ 0xE0001000) (0073ms, 137786ms total)
T050C 6788:133 JLINK_ReadReg(R15 (PC))  returns 0x080001C0 (0000ms, 137786ms total)
T050C 6788:133 JLINK_ReadReg(XPSR)  returns 0x01000000 (0000ms, 137786ms total)
T050C 6788:134 JLINK_ReadMemEx(0x080001AC, 0x003C Bytes, ..., Flags = 0x02000000) -- CPU_ReadMem(128 bytes @ 0x08000180) -- Updating C cache (128 bytes @ 0x08000180) -- Read from C cache (60 bytes @ 0x080001AC) - Data: DF F8 0C D0 00 F0 8C FB 00 48 00 47 B1 F0 00 08 ...  returns 0x3C (0001ms, 137787ms total)
T050C 6788:135 JLINK_ReadMemEx(0x080001A2, 0x0002 Bytes, ..., Flags = 0x02000000) -- Read from C cache (2 bytes @ 0x080001A2) - Data: 00 08  returns 0x02 (0000ms, 137787ms total)
T050C 6788:135 JLINK_ReadMemEx(0x080001A4, 0x003C Bytes, ..., Flags = 0x02000000) -- Read from C cache (60 bytes @ 0x080001A4) - Data: DB 01 00 08 DB 01 00 08 DF F8 0C D0 00 F0 8C FB ...  returns 0x3C (0000ms, 137787ms total)
T050C 6790:026 JLINK_ReadMemEx(0x08007708, 0x003C Bytes, ..., Flags = 0x02000000) -- CPU_ReadMem(128 bytes @ 0x08007700) -- Updating C cache (128 bytes @ 0x08007700) -- Read from C cache (60 bytes @ 0x08007708) - Data: 01 27 00 24 08 E0 9F ED 14 0A 14 48 00 EB 84 00 ...  returns 0x3C (0001ms, 137788ms total)
T050C 6790:028 JLINK_ReadMemEx(0x08007744, 0x003C Bytes, ..., Flags = 0x02000000) -- Read from C cache (60 bytes @ 0x08007744) - Data: 00 20 0E 49 08 70 BD EC 04 8B BD E8 F0 87 00 00 ...  returns 0x3C (0000ms, 137788ms total)
T050C 6790:290 JLINK_ReadReg(R0)  returns 0x00000000 (0001ms, 137789ms total)
T050C 6790:291 JLINK_ReadReg(R1)  returns 0x00000000 (0000ms, 137789ms total)
T050C 6790:291 JLINK_ReadReg(R2)  returns 0x00000000 (0000ms, 137789ms total)
T050C 6790:291 JLINK_ReadReg(R3)  returns 0x00000000 (0000ms, 137789ms total)
T050C 6790:291 JLINK_ReadReg(R4)  returns 0x00000000 (0000ms, 137789ms total)
T050C 6790:291 JLINK_ReadReg(R5)  returns 0x00000000 (0000ms, 137789ms total)
T050C 6790:291 JLINK_ReadReg(R6)  returns 0x00000000 (0000ms, 137789ms total)
T050C 6790:291 JLINK_ReadReg(R7)  returns 0x00000000 (0000ms, 137789ms total)
T050C 6790:291 JLINK_ReadReg(R8)  returns 0x00000000 (0000ms, 137789ms total)
T050C 6790:291 JLINK_ReadReg(R9)  returns 0x00000000 (0000ms, 137789ms total)
T050C 6790:291 JLINK_ReadReg(R10)  returns 0x00000000 (0000ms, 137789ms total)
T050C 6790:291 JLINK_ReadReg(R11)  returns 0x00000000 (0000ms, 137789ms total)
T050C 6790:291 JLINK_ReadReg(R12)  returns 0x00000000 (0000ms, 137789ms total)
T050C 6790:291 JLINK_ReadReg(R13 (SP))  returns 0x20007FB0 (0000ms, 137789ms total)
T050C 6790:291 JLINK_ReadReg(R14)  returns 0xFFFFFFFF (0000ms, 137789ms total)
T050C 6790:291 JLINK_ReadReg(R15 (PC))  returns 0x080001C0 (0000ms, 137789ms total)
T050C 6790:291 JLINK_ReadReg(XPSR)  returns 0x01000000 (0000ms, 137789ms total)
T050C 6790:291 JLINK_ReadReg(MSP)  returns 0x20007FB0 (0000ms, 137789ms total)
T050C 6790:291 JLINK_ReadReg(PSP)  returns 0x00000000 (0000ms, 137789ms total)
T050C 6790:291 JLINK_ReadReg(CFBP)  returns 0x00000000 (0000ms, 137789ms total)
T050C 6790:291 JLINK_ReadReg(FPSCR)  returns 0x00000000 (0004ms, 137793ms total)
T050C 6790:295 JLINK_ReadReg(FPS0)  returns 0x00000000 (0000ms, 137793ms total)
T050C 6790:295 JLINK_ReadReg(FPS1)  returns 0x00000000 (0000ms, 137793ms total)
T050C 6790:295 JLINK_ReadReg(FPS2)  returns 0x00000000 (0000ms, 137793ms total)
T050C 6790:295 JLINK_ReadReg(FPS3)  returns 0x00000000 (0000ms, 137793ms total)
T050C 6790:295 JLINK_ReadReg(FPS4)  returns 0x00000000 (0000ms, 137793ms total)
T050C 6790:295 JLINK_ReadReg(FPS5)  returns 0x00000000 (0000ms, 137793ms total)
T050C 6790:295 JLINK_ReadReg(FPS6)  returns 0x00000000 (0000ms, 137793ms total)
T050C 6790:295 JLINK_ReadReg(FPS7)  returns 0x00000000 (0000ms, 137793ms total)
T050C 6790:295 JLINK_ReadReg(FPS8)  returns 0x00000000 (0000ms, 137793ms total)
T050C 6790:295 JLINK_ReadReg(FPS9)  returns 0x00000000 (0000ms, 137793ms total)
T050C 6790:295 JLINK_ReadReg(FPS10)  returns 0x00000000 (0000ms, 137793ms total)
T050C 6790:295 JLINK_ReadReg(FPS11)  returns 0x00000000 (0000ms, 137793ms total)
T050C 6790:295 JLINK_ReadReg(FPS12)  returns 0x00000000 (0000ms, 137793ms total)
T050C 6790:295 JLINK_ReadReg(FPS13)  returns 0x00000000 (0000ms, 137793ms total)
T050C 6790:295 JLINK_ReadReg(FPS14)  returns 0x00000000 (0000ms, 137793ms total)
T050C 6790:295 JLINK_ReadReg(FPS15)  returns 0x00000000 (0000ms, 137793ms total)
T050C 6790:295 JLINK_ReadReg(FPS16)  returns 0x00000000 (0000ms, 137793ms total)
T050C 6790:295 JLINK_ReadReg(FPS17)  returns 0x00000000 (0000ms, 137793ms total)
T050C 6790:295 JLINK_ReadReg(FPS18)  returns 0x00000000 (0000ms, 137793ms total)
T050C 6790:295 JLINK_ReadReg(FPS19)  returns 0x00000000 (0000ms, 137793ms total)
T050C 6790:295 JLINK_ReadReg(FPS20)  returns 0x00000000 (0000ms, 137793ms total)
T050C 6790:295 JLINK_ReadReg(FPS21)  returns 0x00000000 (0000ms, 137793ms total)
T050C 6790:295 JLINK_ReadReg(FPS22)  returns 0x00000000 (0000ms, 137793ms total)
T050C 6790:295 JLINK_ReadReg(FPS23)  returns 0x00000000 (0000ms, 137793ms total)
T050C 6790:295 JLINK_ReadReg(FPS24)  returns 0x00000000 (0000ms, 137793ms total)
T050C 6790:295 JLINK_ReadReg(FPS25)  returns 0x00000000 (0000ms, 137793ms total)
T050C 6790:295 JLINK_ReadReg(FPS26)  returns 0x00000000 (0000ms, 137793ms total)
T050C 6790:295 JLINK_ReadReg(FPS27)  returns 0x00000000 (0000ms, 137793ms total)
T050C 6790:295 JLINK_ReadReg(FPS28)  returns 0x00000000 (0000ms, 137793ms total)
T050C 6790:295 JLINK_ReadReg(FPS29)  returns 0x00000000 (0000ms, 137793ms total)
T050C 6790:295 JLINK_ReadReg(FPS30)  returns 0x00000000 (0000ms, 137793ms total)
T050C 6790:295 JLINK_ReadReg(FPS31)  returns 0x00000000 (0000ms, 137793ms total)
T050C 6790:295 JLINK_ReadMemEx(0x20000084, 0x0008 Bytes, ..., Flags = 0x02000000) -- CPU_ReadMem(64 bytes @ 0x20000080) -- Updating C cache (64 bytes @ 0x20000080) -- Read from C cache (8 bytes @ 0x20000084) - Data: 30 2E 30 30 30 30 00 00  returns 0x08 (0002ms, 137795ms total)
T050C 6790:298 JLINK_ReadMemEx(0x20000109, 0x0001 Bytes, ..., Flags = 0x02000000) -- CPU_ReadMem(64 bytes @ 0x20000100) -- Updating C cache (64 bytes @ 0x20000100) -- Read from C cache (1 bytes @ 0x20000109) - Data: 01  returns 0x01 (0001ms, 137796ms total)
T050C 6790:302 JLINK_ReadMemEx(0x200002B7, 0x0007 Bytes, ..., Flags = 0x02000000) -- CPU_ReadMem(64 bytes @ 0x20000280) -- Updating C cache (64 bytes @ 0x20000280) -- Read from C cache (7 bytes @ 0x200002B7) - Data: 20 20 30 2E 31 00 00  returns 0x07 (0002ms, 137799ms total)
T050C 6790:327 JLINK_ReadMemEx(0x200000E4, 0x0004 Bytes, ..., Flags = 0x02000000) -- CPU_ReadMem(64 bytes @ 0x200000C0) -- Updating C cache (64 bytes @ 0x200000C0) -- Read from C cache (4 bytes @ 0x200000E4) - Data: 00 00 00 00  returns 0x04 (0002ms, 137801ms total)
T050C 6790:344 JLINK_ReadMemEx(0x2000005C, 0x0004 Bytes, ..., Flags = 0x02000000) -- CPU_ReadMem(64 bytes @ 0x20000040) -- Updating C cache (64 bytes @ 0x20000040) -- Read from C cache (4 bytes @ 0x2000005C) - Data: 00 00 00 00  returns 0x04 (0001ms, 137802ms total)
T050C 6790:346 JLINK_ReadMemEx(0x2000004C, 0x0004 Bytes, ..., Flags = 0x02000000) -- Read from C cache (4 bytes @ 0x2000004C) - Data: BE 02 00 00  returns 0x04 (0000ms, 137802ms total)
T050C 6790:349 JLINK_ReadMemEx(0x20000026, 0x0001 Bytes, ..., Flags = 0x02000000) -- CPU_ReadMem(64 bytes @ 0x20000000) -- Updating C cache (64 bytes @ 0x20000000) -- Read from C cache (1 bytes @ 0x20000026) - Data: 00  returns 0x01 (0001ms, 137803ms total)
T050C 6790:352 JLINK_ReadMemEx(0x2000001D, 0x0001 Bytes, ..., Flags = 0x02000000) -- Read from C cache (1 bytes @ 0x2000001D) - Data: 01  returns 0x01 (0000ms, 137803ms total)
T050C 6790:363 JLINK_ReadMemEx(0x20000058, 0x0004 Bytes, ..., Flags = 0x02000000) -- Read from C cache (4 bytes @ 0x20000058) - Data: 5A 77 C0 40  returns 0x04 (0000ms, 137803ms total)
T03AC 6790:428 JLINK_ReadMemEx(0x080001C0, 0x0002 Bytes, ..., Flags = 0x02000000) -- Read from C cache (2 bytes @ 0x080001C0) - Data: 06 48  returns 0x02 (0000ms, 137803ms total)
T03AC 6790:428 JLINK_SetBPEx(Addr = 0x0800F0B0, Type = 0xFFFFFFF2)  returns 0x00000001 (0000ms, 137803ms total)
T03AC 6790:428 JLINK_Go() -- CPU_WriteMem(4 bytes @ 0xE0002000) -- CPU_ReadMem(4 bytes @ 0xE0001000) -- CPU_WriteMem(4 bytes @ 0xE0002008) -- CPU_WriteMem(4 bytes @ 0xE000200C) -- CPU_WriteMem(4 bytes @ 0xE0002010) -- CPU_WriteMem(4 bytes @ 0xE0002014) -- CPU_WriteMem(4 bytes @ 0xE0002018) -- CPU_WriteMem(4 bytes @ 0xE000201C) -- CPU_WriteMem(4 bytes @ 0xE0001004) (0006ms, 137809ms total)
T03AC 6790:534 JLINK_IsHalted()  returns TRUE (0003ms, 137812ms total)
T03AC 6790:537 JLINK_Halt()  returns 0x00 (0000ms, 137809ms total)
T03AC 6790:537 JLINK_IsHalted()  returns TRUE (0000ms, 137809ms total)
T03AC 6790:537 JLINK_IsHalted()  returns TRUE (0000ms, 137809ms total)
T03AC 6790:537 JLINK_IsHalted()  returns TRUE (0000ms, 137809ms total)
T03AC 6790:537 JLINK_ReadReg(R15 (PC))  returns 0x0800F0B0 (0000ms, 137809ms total)
T03AC 6790:537 JLINK_ReadReg(XPSR)  returns 0x61000000 (0000ms, 137809ms total)
T03AC 6790:537 JLINK_ClrBPEx(BPHandle = 0x00000001)  returns 0x00 (0000ms, 137809ms total)
T03AC 6790:537 JLINK_ReadMemU32(0xE000ED30, 0x0001 Items, ...) -- CPU_ReadMem(4 bytes @ 0xE000ED30) - Data: 02 00 00 00  returns 0x01 (0001ms, 137810ms total)
T03AC 6790:538 JLINK_ReadMemU32(0xE0001028, 0x0001 Items, ...) -- CPU_ReadMem(4 bytes @ 0xE0001028) - Data: 00 00 00 00  returns 0x01 (0001ms, 137811ms total)
T03AC 6790:539 JLINK_ReadMemU32(0xE0001038, 0x0001 Items, ...) -- CPU_ReadMem(4 bytes @ 0xE0001038) - Data: 00 02 00 00  returns 0x01 (0001ms, 137812ms total)
T03AC 6790:540 JLINK_ReadMemU32(0xE0001048, 0x0001 Items, ...) -- CPU_ReadMem(4 bytes @ 0xE0001048) - Data: 00 00 00 00  returns 0x01 (0001ms, 137813ms total)
T03AC 6790:541 JLINK_ReadMemU32(0xE0001058, 0x0001 Items, ...) -- CPU_ReadMem(4 bytes @ 0xE0001058) - Data: 00 00 00 00  returns 0x01 (0001ms, 137814ms total)
T03AC 6790:542 JLINK_ReadReg(R0)  returns 0x0800F0B1 (0000ms, 137814ms total)
T03AC 6790:542 JLINK_ReadReg(R1)  returns 0x20007FB0 (0000ms, 137814ms total)
T03AC 6790:542 JLINK_ReadReg(R2)  returns 0x00000000 (0000ms, 137814ms total)
T03AC 6790:542 JLINK_ReadReg(R3)  returns 0x0800E6D9 (0000ms, 137814ms total)
T03AC 6790:542 JLINK_ReadReg(R4)  returns 0x0809B7E8 (0000ms, 137814ms total)
T03AC 6790:542 JLINK_ReadReg(R5)  returns 0x0809B7E8 (0000ms, 137814ms total)
T03AC 6790:542 JLINK_ReadReg(R6)  returns 0x00000000 (0000ms, 137814ms total)
T03AC 6790:542 JLINK_ReadReg(R7)  returns 0x00000000 (0000ms, 137814ms total)
T03AC 6790:542 JLINK_ReadReg(R8)  returns 0x00000000 (0000ms, 137814ms total)
T03AC 6790:542 JLINK_ReadReg(R9)  returns 0x00000000 (0000ms, 137814ms total)
T03AC 6790:542 JLINK_ReadReg(R10)  returns 0x00000000 (0000ms, 137814ms total)
T03AC 6790:542 JLINK_ReadReg(R11)  returns 0x00000000 (0000ms, 137814ms total)
T03AC 6790:542 JLINK_ReadReg(R12)  returns 0x00000000 (0000ms, 137814ms total)
T03AC 6790:542 JLINK_ReadReg(R13 (SP))  returns 0x20007FB0 (0000ms, 137814ms total)
T03AC 6790:542 JLINK_ReadReg(R14)  returns 0x080008E9 (0000ms, 137814ms total)
T03AC 6790:542 JLINK_ReadReg(R15 (PC))  returns 0x0800F0B0 (0000ms, 137814ms total)
T03AC 6790:542 JLINK_ReadReg(XPSR)  returns 0x61000000 (0000ms, 137814ms total)
T03AC 6790:542 JLINK_ReadReg(MSP)  returns 0x20007FB0 (0000ms, 137814ms total)
T03AC 6790:542 JLINK_ReadReg(PSP)  returns 0x00000000 (0000ms, 137814ms total)
T03AC 6790:542 JLINK_ReadReg(CFBP)  returns 0x00000000 (0000ms, 137814ms total)
T03AC 6790:542 JLINK_ReadReg(FPSCR)  returns 0x00000000 (0004ms, 137818ms total)
T03AC 6790:546 JLINK_ReadReg(FPS0)  returns 0x00000000 (0000ms, 137818ms total)
T03AC 6790:546 JLINK_ReadReg(FPS1)  returns 0x00000000 (0000ms, 137818ms total)
T03AC 6790:546 JLINK_ReadReg(FPS2)  returns 0x00000000 (0000ms, 137818ms total)
T03AC 6790:546 JLINK_ReadReg(FPS3)  returns 0x00000000 (0000ms, 137818ms total)
T03AC 6790:546 JLINK_ReadReg(FPS4)  returns 0x00000000 (0000ms, 137818ms total)
T03AC 6790:546 JLINK_ReadReg(FPS5)  returns 0x00000000 (0000ms, 137818ms total)
T03AC 6790:546 JLINK_ReadReg(FPS6)  returns 0x00000000 (0000ms, 137818ms total)
T03AC 6790:546 JLINK_ReadReg(FPS7)  returns 0x00000000 (0000ms, 137818ms total)
T03AC 6790:546 JLINK_ReadReg(FPS8)  returns 0x00000000 (0000ms, 137818ms total)
T03AC 6790:546 JLINK_ReadReg(FPS9)  returns 0x00000000 (0000ms, 137818ms total)
T03AC 6790:546 JLINK_ReadReg(FPS10)  returns 0x00000000 (0000ms, 137818ms total)
T03AC 6790:546 JLINK_ReadReg(FPS11)  returns 0x00000000 (0000ms, 137818ms total)
T03AC 6790:546 JLINK_ReadReg(FPS12)  returns 0x00000000 (0000ms, 137818ms total)
T03AC 6790:546 JLINK_ReadReg(FPS13)  returns 0x00000000 (0000ms, 137818ms total)
T03AC 6790:546 JLINK_ReadReg(FPS14)  returns 0x00000000 (0000ms, 137818ms total)
T03AC 6790:546 JLINK_ReadReg(FPS15)  returns 0x00000000 (0000ms, 137818ms total)
T03AC 6790:546 JLINK_ReadReg(FPS16)  returns 0x00000000 (0000ms, 137818ms total)
T03AC 6790:546 JLINK_ReadReg(FPS17)  returns 0x00000000 (0000ms, 137818ms total)
T03AC 6790:546 JLINK_ReadReg(FPS18)  returns 0x00000000 (0000ms, 137818ms total)
T03AC 6790:546 JLINK_ReadReg(FPS19)  returns 0x00000000 (0000ms, 137818ms total)
T03AC 6790:546 JLINK_ReadReg(FPS20)  returns 0x00000000 (0000ms, 137818ms total)
T03AC 6790:546 JLINK_ReadReg(FPS21)  returns 0x00000000 (0000ms, 137818ms total)
T03AC 6790:546 JLINK_ReadReg(FPS22)  returns 0x00000000 (0000ms, 137818ms total)
T03AC 6790:546 JLINK_ReadReg(FPS23)  returns 0x00000000 (0000ms, 137818ms total)
T03AC 6790:546 JLINK_ReadReg(FPS24)  returns 0x00000000 (0000ms, 137818ms total)
T03AC 6790:546 JLINK_ReadReg(FPS25)  returns 0x00000000 (0000ms, 137818ms total)
T03AC 6790:546 JLINK_ReadReg(FPS26)  returns 0x00000000 (0000ms, 137818ms total)
T03AC 6790:546 JLINK_ReadReg(FPS27)  returns 0x00000000 (0000ms, 137818ms total)
T03AC 6790:546 JLINK_ReadReg(FPS28)  returns 0x00000000 (0000ms, 137818ms total)
T03AC 6790:546 JLINK_ReadReg(FPS29)  returns 0x00000000 (0000ms, 137818ms total)
T03AC 6790:546 JLINK_ReadReg(FPS30)  returns 0x00000000 (0000ms, 137818ms total)
T03AC 6790:546 JLINK_ReadReg(FPS31)  returns 0x00000000 (0000ms, 137818ms total)
T050C 6790:592 JLINK_ReadMemEx(0x2000005C, 0x0004 Bytes, ..., Flags = 0x02000000) -- CPU_ReadMem(64 bytes @ 0x20000040) -- Updating C cache (64 bytes @ 0x20000040) -- Read from C cache (4 bytes @ 0x2000005C) - Data: 00 00 00 00  returns 0x04 (0001ms, 137819ms total)
T050C 6790:593 JLINK_ReadMemEx(0x2000004C, 0x0004 Bytes, ..., Flags = 0x02000000) -- Read from C cache (4 bytes @ 0x2000004C) - Data: 00 00 00 00  returns 0x04 (0000ms, 137819ms total)
T050C 6790:602 JLINK_ReadMemEx(0x20000026, 0x0001 Bytes, ..., Flags = 0x02000000) -- CPU_ReadMem(64 bytes @ 0x20000000) -- Updating C cache (64 bytes @ 0x20000000) -- Read from C cache (1 bytes @ 0x20000026) - Data: 00  returns 0x01 (0001ms, 137820ms total)
T050C 6790:603 JLINK_ReadMemEx(0x2000001D, 0x0001 Bytes, ..., Flags = 0x02000000) -- Read from C cache (1 bytes @ 0x2000001D) - Data: 00  returns 0x01 (0000ms, 137820ms total)
T050C 6790:608 JLINK_ReadMemEx(0x200000E4, 0x0004 Bytes, ..., Flags = 0x02000000) -- CPU_ReadMem(64 bytes @ 0x200000C0) -- Updating C cache (64 bytes @ 0x200000C0) -- Read from C cache (4 bytes @ 0x200000E4) - Data: 00 00 00 00  returns 0x04 (0001ms, 137821ms total)
T050C 6790:624 JLINK_ReadMemEx(0x20000058, 0x0004 Bytes, ..., Flags = 0x02000000) -- Read from C cache (4 bytes @ 0x20000058) - Data: 00 00 00 00  returns 0x04 (0000ms, 137821ms total)
T050C 6790:630 JLINK_ReadMemEx(0x0800EFB0, 0x003C Bytes, ..., Flags = 0x02000000) -- CPU_ReadMem(128 bytes @ 0x0800EF80) -- Updating C cache (128 bytes @ 0x0800EF80) -- Read from C cache (60 bytes @ 0x0800EFB0) - Data: 4F F0 00 0B 4F F4 7F 00 1B 49 08 60 6F F0 7F 40 ...  returns 0x3C (0001ms, 137822ms total)
T050C 6790:631 JLINK_ReadMemEx(0x0800EFEC, 0x0014 Bytes, ..., Flags = 0x02000000) -- Read from C cache (20 bytes @ 0x0800EFEC) - Data: 14 32 91 B2 28 88 00 23 0F A2 FE F7 BD FB 07 E0 ...  returns 0x14 (0000ms, 137822ms total)
T050C 6790:631 JLINK_ReadMemEx(0x0800F000, 0x0028 Bytes, ..., Flags = 0x02000000) -- CPU_ReadMem(64 bytes @ 0x0800F000) -- Updating C cache (64 bytes @ 0x0800F000) -- Read from C cache (40 bytes @ 0x0800F000) - Data: 91 B2 28 88 00 23 0E A2 FE F7 B4 FB BA F1 00 0F ...  returns 0x28 (0001ms, 137823ms total)
T050C 6790:632 JLINK_ReadMemEx(0x0800F04C, 0x003C Bytes, ..., Flags = 0x02000000) -- CPU_ReadMem(128 bytes @ 0x0800F040) -- Updating C cache (128 bytes @ 0x0800F040) -- Read from C cache (60 bytes @ 0x0800F04C) - Data: 01 46 16 4B 18 68 00 22 23 E0 4F F6 FF 13 9A 42 ...  returns 0x3C (0001ms, 137824ms total)
T050C 6790:633 JLINK_ReadMemEx(0x0800F088, 0x003C Bytes, ..., Flags = 0x02000000) -- CPU_ReadMem(64 bytes @ 0x0800F0C0) -- Updating C cache (64 bytes @ 0x0800F0C0) -- Read from C cache (60 bytes @ 0x0800F088) - Data: 00 F8 01 3B 11 F8 01 3B 00 F8 01 3B 11 F8 01 3B ...  returns 0x3C (0001ms, 137825ms total)
T050C 6790:635 JLINK_ReadMemEx(0x0800F0C4, 0x003C Bytes, ..., Flags = 0x02000000) -- Read from C cache (60 bytes @ 0x0800F0C4) - Data: 08 70 F5 F7 4F FB F8 F7 FD FB 4C F2 50 30 FF F7 ...  returns 0x3C (0000ms, 137825ms total)
T03AC 6791:225 JLINK_ReadMemEx(0x0800F0B0, 0x0002 Bytes, ..., Flags = 0x02000000) -- Read from C cache (2 bytes @ 0x0800F0B0) - Data: 01 20  returns 0x02 (0000ms, 137825ms total)
T03AC 6791:225 JLINK_Go() -- CPU_ReadMem(4 bytes @ 0xE0001000) -- CPU_WriteMem(4 bytes @ 0xE0002008) (0004ms, 137829ms total)
T03AC 6791:330 JLINK_IsHalted()  returns FALSE (0001ms, 137831ms total)
T03AC 6791:431 JLINK_IsHalted()  returns FALSE (0001ms, 137831ms total)
T03AC 6791:532 JLINK_IsHalted()  returns FALSE (0004ms, 137834ms total)
T03AC 6791:636 JLINK_IsHalted()  returns FALSE (0001ms, 137831ms total)
T03AC 6791:737 JLINK_ReadMemU32(0xE0001004, 0x0001 Items, ...) -- CPU_ReadMem(4 bytes @ 0xE0001004) - Data: 99 76 17 05  returns 0x01 (0001ms, 137831ms total)
T050C 6791:780 JLINK_ReadMemEx(0x2000005C, 0x0004 Bytes, ..., Flags = 0x02000000) -- CPU_ReadMem(4 bytes @ 0x2000005C) - Data: 00 00 00 00  returns 0x04 (0001ms, 137832ms total)
T050C 6791:781 JLINK_ReadMemEx(0x2000004C, 0x0004 Bytes, ..., Flags = 0x02000000) -- CPU_ReadMem(4 bytes @ 0x2000004C) - Data: 00 00 00 00  returns 0x04 (0001ms, 137833ms total)
T050C 6791:787 JLINK_ReadMemEx(0x20000026, 0x0001 Bytes, ..., Flags = 0x02000000) -- CPU_ReadMem(1 bytes @ 0x20000026) - Data: 00  returns 0x01 (0001ms, 137834ms total)
T050C 6791:789 JLINK_ReadMemEx(0x2000001D, 0x0001 Bytes, ..., Flags = 0x02000000) -- CPU_ReadMem(1 bytes @ 0x2000001D) - Data: 00  returns 0x01 (0000ms, 137834ms total)
T050C 6791:794 JLINK_ReadMemEx(0x200000E4, 0x0004 Bytes, ..., Flags = 0x02000000) -- CPU_ReadMem(4 bytes @ 0x200000E4) - Data: 00 00 00 00  returns 0x04 (0002ms, 137836ms total)
T050C 6791:807 JLINK_ReadMemEx(0x20000058, 0x0004 Bytes, ..., Flags = 0x02000000) -- CPU_ReadMem(4 bytes @ 0x20000058) - Data: 00 00 00 00  returns 0x04 (0001ms, 137837ms total)
T03AC 6791:813 JLINK_IsHalted()  returns FALSE (0001ms, 137838ms total)
T03AC 6791:918 JLINK_IsHalted()  returns FALSE (0001ms, 137838ms total)
T03AC 6792:019 JLINK_IsHalted()  returns FALSE (0001ms, 137838ms total)
T03AC 6792:120 JLINK_IsHalted()  returns FALSE (0001ms, 137838ms total)
T03AC 6792:221 JLINK_IsHalted()  returns FALSE (0001ms, 137838ms total)
T03AC 6792:322 JLINK_ReadMemU32(0xE0001004, 0x0001 Items, ...) - Data: 99 76 17 05  returns 0x01 (0000ms, 137837ms total)
T050C 6792:387 JLINK_ReadMemEx(0x2000005C, 0x0004 Bytes, ..., Flags = 0x02000000) -- CPU_ReadMem(4 bytes @ 0x2000005C) - Data: 00 00 00 00  returns 0x04 (0002ms, 137839ms total)
T050C 6792:389 JLINK_ReadMemEx(0x2000004C, 0x0004 Bytes, ..., Flags = 0x02000000) -- CPU_ReadMem(4 bytes @ 0x2000004C) - Data: 00 00 00 00  returns 0x04 (0001ms, 137840ms total)
T050C 6792:390 JLINK_ReadMemEx(0x20000026, 0x0001 Bytes, ..., Flags = 0x02000000) -- CPU_ReadMem(1 bytes @ 0x20000026) - Data: 00  returns 0x01 (0001ms, 137841ms total)
T050C 6792:391 JLINK_ReadMemEx(0x2000001D, 0x0001 Bytes, ..., Flags = 0x02000000) -- CPU_ReadMem(1 bytes @ 0x2000001D) - Data: 00  returns 0x01 (0001ms, 137842ms total)
T050C 6792:392 JLINK_ReadMemEx(0x200000E4, 0x0004 Bytes, ..., Flags = 0x02000000) -- CPU_ReadMem(4 bytes @ 0x200000E4) - Data: 00 00 00 00  returns 0x04 (0001ms, 137843ms total)
T050C 6792:403 JLINK_ReadMemEx(0x20000058, 0x0004 Bytes, ..., Flags = 0x02000000) -- CPU_ReadMem(4 bytes @ 0x20000058) - Data: 00 00 00 00  returns 0x04 (0002ms, 137845ms total)
T03AC 6792:405 JLINK_IsHalted()  returns FALSE (0001ms, 137846ms total)
T03AC 6792:506 JLINK_IsHalted()  returns FALSE (0001ms, 137846ms total)
T03AC 6792:607 JLINK_IsHalted()  returns FALSE (0001ms, 137846ms total)
T03AC 6792:708 JLINK_IsHalted()  returns FALSE (0001ms, 137846ms total)
T03AC 6792:809 JLINK_IsHalted()  returns FALSE (0001ms, 137846ms total)
T03AC 6792:910 JLINK_ReadMemU32(0xE0001004, 0x0001 Items, ...) - Data: 99 76 17 05  returns 0x01 (0000ms, 137845ms total)
T050C 6792:983 JLINK_ReadMemEx(0x2000005C, 0x0004 Bytes, ..., Flags = 0x02000000) -- CPU_ReadMem(4 bytes @ 0x2000005C) - Data: 00 00 00 00  returns 0x04 (0001ms, 137846ms total)
T050C 6792:984 JLINK_ReadMemEx(0x2000004C, 0x0004 Bytes, ..., Flags = 0x02000000) -- CPU_ReadMem(4 bytes @ 0x2000004C) - Data: 00 00 00 00  returns 0x04 (0001ms, 137847ms total)
T050C 6792:985 JLINK_ReadMemEx(0x20000026, 0x0001 Bytes, ..., Flags = 0x02000000) -- CPU_ReadMem(1 bytes @ 0x20000026) - Data: 00  returns 0x01 (0001ms, 137848ms total)
T050C 6792:986 JLINK_ReadMemEx(0x2000001D, 0x0001 Bytes, ..., Flags = 0x02000000) -- CPU_ReadMem(1 bytes @ 0x2000001D) - Data: 00  returns 0x01 (0001ms, 137849ms total)
T050C 6792:987 JLINK_ReadMemEx(0x200000E4, 0x0004 Bytes, ..., Flags = 0x02000000) -- CPU_ReadMem(4 bytes @ 0x200000E4) - Data: 00 00 00 00  returns 0x04 (0001ms, 137850ms total)
T050C 6793:000 JLINK_ReadMemEx(0x20000058, 0x0004 Bytes, ..., Flags = 0x02000000) -- CPU_ReadMem(4 bytes @ 0x20000058) - Data: 00 00 00 00  returns 0x04 (0002ms, 137852ms total)
T03AC 6793:002 JLINK_IsHalted()  returns FALSE (0001ms, 137853ms total)
T03AC 6793:103 JLINK_IsHalted()  returns FALSE (0001ms, 137853ms total)
T03AC 6793:204 JLINK_IsHalted()  returns FALSE (0001ms, 137853ms total)
T03AC 6793:305 JLINK_IsHalted()  returns ERROR (0002ms, 137854ms total)
T03AC 6793:307 JLINK_Halt()CPU could not be halted  returns 0x01 (0002ms, 137854ms total)
T03AC 6793:309 JLINK_IsHalted()  returns ERROR (0002ms, 137856ms total)
T03AC 6793:311 JLINK_IsHalted()  returns ERROR (0002ms, 137856ms total)
T03AC 6793:313 JLINK_IsHalted()  returns ERROR (0002ms, 137856ms total)
T03AC 6793:315 JLINK_ReadReg(R15 (PC)) -- CPU is running
  ***** Error: Can not read register 15 (R15) while CPU is running  returns 0x00000000 (0002ms, 137856ms total)
T03AC 6793:317 JLINK_ReadReg(XPSR) -- CPU is running
  ***** Error: Can not read register 16 (XPSR) while CPU is running  returns 0x00000000 (0002ms, 137858ms total)
T03AC 6793:319 JLINK_ReadMemU32(0xE000ED30, 0x0001 Items, ...) -- CPU_ReadMem(4 bytes @ 0xE000ED30)  returns 0xFFFFFFFF (0003ms, 137861ms total)
T03AC 6793:322 JLINK_ReadReg(R0) -- CPU is running
  ***** Error: Can not read register 0 (R0) while CPU is running  returns 0x00000000 (0004ms, 137865ms total)
T03AC 6793:331 JLINK_ReadReg(R1) -- CPU is running
  ***** Error: Can not read register 1 (R1) while CPU is running  returns 0x00000000 (0002ms, 137867ms total)
T03AC 6793:334 JLINK_ReadReg(R2) -- CPU is running
  ***** Error: Can not read register 2 (R2) while CPU is running  returns 0x00000000 (0002ms, 137869ms total)
T03AC 6793:336 JLINK_ReadReg(R3) -- CPU is running
  ***** Error: Can not read register 3 (R3) while CPU is running  returns 0x00000000 (0002ms, 137871ms total)
T03AC 6793:338 JLINK_ReadReg(R4) -- CPU is running
  ***** Error: Can not read register 4 (R4) while CPU is running  returns 0x00000000 (0002ms, 137873ms total)
T03AC 6793:340 JLINK_ReadReg(R5) -- CPU is running
  ***** Error: Can not read register 5 (R5) while CPU is running  returns 0x00000000 (0002ms, 137875ms total)
T03AC 6793:342 JLINK_ReadReg(R6) -- CPU is running
  ***** Error: Can not read register 6 (R6) while CPU is running  returns 0x00000000 (0002ms, 137877ms total)
T03AC 6793:344 JLINK_ReadReg(R7) -- CPU is running
  ***** Error: Can not read register 7 (R7) while CPU is running  returns 0x00000000 (0002ms, 137879ms total)
T03AC 6793:347 JLINK_ReadReg(R8) -- CPU is running
  ***** Error: Can not read register 8 (R8) while CPU is running  returns 0x00000000 (0002ms, 137881ms total)
T03AC 6793:349 JLINK_ReadReg(R9) -- CPU is running
  ***** Error: Can not read register 9 (R9) while CPU is running  returns 0x00000000 (0002ms, 137883ms total)
T03AC 6793:351 JLINK_ReadReg(R10) -- CPU is running
  ***** Error: Can not read register 10 (R10) while CPU is running  returns 0x00000000 (0002ms, 137885ms total)
T03AC 6793:353 JLINK_ReadReg(R11) -- CPU is running
  ***** Error: Can not read register 11 (R11) while CPU is running  returns 0x00000000 (0002ms, 137887ms total)
T03AC 6793:355 JLINK_ReadReg(R12) -- CPU is running
  ***** Error: Can not read register 12 (R12) while CPU is running  returns 0x00000000 (0002ms, 137889ms total)
T03AC 6793:358 JLINK_ReadReg(R13 (SP)) -- CPU is running
  ***** Error: Can not read register 13 (R13) while CPU is running  returns 0x00000000 (0002ms, 137891ms total)
T03AC 6793:360 JLINK_ReadReg(R14) -- CPU is running
  ***** Error: Can not read register 14 (R14) while CPU is running  returns 0x00000000 (0002ms, 137893ms total)
T03AC 6793:362 JLINK_ReadReg(R15 (PC)) -- CPU is running
  ***** Error: Can not read register 15 (R15) while CPU is running  returns 0x00000000 (0002ms, 137895ms total)
T03AC 6793:366 JLINK_ReadReg(XPSR) -- CPU is running
  ***** Error: Can not read register 16 (XPSR) while CPU is running  returns 0x00000000 (0002ms, 137897ms total)
T03AC 6793:368 JLINK_ReadReg(MSP) -- CPU is running
  ***** Error: Can not read register 17 (MSP) while CPU is running  returns 0x00000000 (0002ms, 137899ms total)
T03AC 6793:378 JLINK_ReadReg(PSP) -- CPU is running
  ***** Error: Can not read register 18 (PSP) while CPU is running  returns 0x00000000 (0002ms, 137901ms total)
T03AC 6793:380 JLINK_ReadReg(CFBP) -- CPU is running
  ***** Error: Can not read register 20 (CFBP) while CPU is running  returns 0x00000000 (0002ms, 137903ms total)
T03AC 6793:383 JLINK_ReadReg(FPSCR) -- CPU is running
  ***** Error: Can not read register 32 (FPSCR) while CPU is running  returns 0x00000000 (0002ms, 137905ms total)
T03AC 6793:385 JLINK_ReadReg(FPS0) -- CPU is running
  ***** Error: Can not read register 33 (FPS0) while CPU is running  returns 0x00000000 (0002ms, 137907ms total)
T03AC 6793:387 JLINK_ReadReg(FPS1) -- CPU is running
  ***** Error: Can not read register 34 (FPS1) while CPU is running  returns 0x00000000 (0002ms, 137909ms total)
T03AC 6793:389 JLINK_ReadReg(FPS2) -- CPU is running
  ***** Error: Can not read register 35 (FPS2) while CPU is running  returns 0x00000000 (0002ms, 137911ms total)
T03AC 6793:391 JLINK_ReadReg(FPS3) -- CPU is running
  ***** Error: Can not read register 36 (FPS3) while CPU is running  returns 0x00000000 (0002ms, 137913ms total)
T03AC 6793:393 JLINK_ReadReg(FPS4) -- CPU is running
  ***** Error: Can not read register 37 (FPS4) while CPU is running  returns 0x00000000 (0002ms, 137915ms total)
T03AC 6793:395 JLINK_ReadReg(FPS5) -- CPU is running
  ***** Error: Can not read register 38 (FPS5) while CPU is running  returns 0x00000000 (0002ms, 137917ms total)
T03AC 6793:398 JLINK_ReadReg(FPS6) -- CPU is running
  ***** Error: Can not read register 39 (FPS6) while CPU is running  returns 0x00000000 (0002ms, 137919ms total)
T03AC 6793:400 JLINK_ReadReg(FPS7) -- CPU is running
  ***** Error: Can not read register 40 (FPS7) while CPU is running  returns 0x00000000 (0002ms, 137921ms total)
T03AC 6793:402 JLINK_ReadReg(FPS8) -- CPU is running
  ***** Error: Can not read register 41 (FPS8) while CPU is running  returns 0x00000000 (0002ms, 137923ms total)
T03AC 6793:404 JLINK_ReadReg(FPS9) -- CPU is running
  ***** Error: Can not read register 42 (FPS9) while CPU is running  returns 0x00000000 (0002ms, 137925ms total)
T03AC 6793:406 JLINK_ReadReg(FPS10) -- CPU is running
  ***** Error: Can not read register 43 (FPS10) while CPU is running  returns 0x00000000 (0002ms, 137927ms total)
T03AC 6793:408 JLINK_ReadReg(FPS11) -- CPU is running
  ***** Error: Can not read register 44 (FPS11) while CPU is running  returns 0x00000000 (0002ms, 137929ms total)
T03AC 6793:410 JLINK_ReadReg(FPS12) -- CPU is running
  ***** Error: Can not read register 45 (FPS12) while CPU is running  returns 0x00000000 (0002ms, 137931ms total)
T03AC 6793:413 JLINK_ReadReg(FPS13) -- CPU is running
  ***** Error: Can not read register 46 (FPS13) while CPU is running  returns 0x00000000 (0002ms, 137933ms total)
T03AC 6793:415 JLINK_ReadReg(FPS14) -- CPU is running
  ***** Error: Can not read register 47 (FPS14) while CPU is running  returns 0x00000000 (0002ms, 137935ms total)
T03AC 6793:417 JLINK_ReadReg(FPS15) -- CPU is running
  ***** Error: Can not read register 48 (FPS15) while CPU is running  returns 0x00000000 (0002ms, 137937ms total)
T03AC 6793:419 JLINK_ReadReg(FPS16) -- CPU is running
  ***** Error: Can not read register 49 (FPS16) while CPU is running  returns 0x00000000 (0002ms, 137939ms total)
T03AC 6793:421 JLINK_ReadReg(FPS17) -- CPU is running
  ***** Error: Can not read register 50 (FPS17) while CPU is running  returns 0x00000000 (0002ms, 137941ms total)
T03AC 6793:423 JLINK_ReadReg(FPS18) -- CPU is running
  ***** Error: Can not read register 51 (FPS18) while CPU is running  returns 0x00000000 (0002ms, 137943ms total)
T03AC 6793:425 JLINK_ReadReg(FPS19) -- CPU is running
  ***** Error: Can not read register 52 (FPS19) while CPU is running  returns 0x00000000 (0002ms, 137945ms total)
T03AC 6793:427 JLINK_ReadReg(FPS20) -- CPU is running
  ***** Error: Can not read register 53 (FPS20) while CPU is running  returns 0x00000000 (0002ms, 137947ms total)
T03AC 6793:429 JLINK_ReadReg(FPS21) -- CPU is running
  ***** Error: Can not read register 54 (FPS21) while CPU is running  returns 0x00000000 (0002ms, 137949ms total)
T03AC 6793:431 JLINK_ReadReg(FPS22) -- CPU is running
  ***** Error: Can not read register 55 (FPS22) while CPU is running  returns 0x00000000 (0002ms, 137951ms total)
T03AC 6793:434 JLINK_ReadReg(FPS23) -- CPU is running
  ***** Error: Can not read register 56 (FPS23) while CPU is running  returns 0x00000000 (0002ms, 137953ms total)
T03AC 6793:436 JLINK_ReadReg(FPS24) -- CPU is running
  ***** Error: Can not read register 57 (FPS24) while CPU is running  returns 0x00000000 (0002ms, 137955ms total)
T03AC 6793:443 JLINK_ReadReg(FPS25) -- CPU is running
  ***** Error: Can not read register 58 (FPS25) while CPU is running  returns 0x00000000 (0002ms, 137957ms total)
T03AC 6793:450 JLINK_ReadReg(FPS26) -- CPU is running
  ***** Error: Can not read register 59 (FPS26) while CPU is running  returns 0x00000000 (0002ms, 137959ms total)
T03AC 6793:453 JLINK_ReadReg(FPS27) -- CPU is running
  ***** Error: Can not read register 60 (FPS27) while CPU is running  returns 0x00000000 (0001ms, 137960ms total)
T03AC 6793:456 JLINK_ReadReg(FPS28) -- CPU is running
  ***** Error: Can not read register 61 (FPS28) while CPU is running  returns 0x00000000 (0002ms, 137962ms total)
T03AC 6793:458 JLINK_ReadReg(FPS29) -- CPU is running
  ***** Error: Can not read register 62 (FPS29) while CPU is running  returns 0x00000000 (0002ms, 137964ms total)
T03AC 6793:460 JLINK_ReadReg(FPS30) -- CPU is running
  ***** Error: Can not read register 63 (FPS30) while CPU is running  returns 0x00000000 (0002ms, 137966ms total)
T03AC 6793:462 JLINK_ReadReg(FPS31) -- CPU is running
  ***** Error: Can not read register 64 (FPS31) while CPU is running  returns 0x00000000 (0002ms, 137968ms total)
T050C 6793:522 JLINK_ReadMemEx(0x2000005C, 0x0004 Bytes, ..., Flags = 0x02000000) -- CPU_ReadMem(4 bytes @ 0x2000005C) - Data: AA AA AA AA  returns 0xFFFFFFFF (0002ms, 137970ms total)
T050C 6793:531 JLINK_ReadMemEx(0x2000004C, 0x0004 Bytes, ..., Flags = 0x02000000) -- CPU_ReadMem(4 bytes @ 0x2000004C) - Data: AA AA AA AA  returns 0xFFFFFFFF (0002ms, 137972ms total)
T050C 6793:538 JLINK_ReadMemEx(0x20000026, 0x0001 Bytes, ..., Flags = 0x02000000) -- CPU_ReadMem(1 bytes @ 0x20000026) - Data: AA  returns 0xFFFFFFFF (0003ms, 137975ms total)
T050C 6793:549 JLINK_ReadMemEx(0x2000001D, 0x0001 Bytes, ..., Flags = 0x02000000) -- CPU_ReadMem(1 bytes @ 0x2000001D) - Data: AA  returns 0xFFFFFFFF (0002ms, 137977ms total)
T050C 6793:556 JLINK_ReadMemEx(0x200000E4, 0x0004 Bytes, ..., Flags = 0x02000000) -- CPU_ReadMem(4 bytes @ 0x200000E4) - Data: AA AA AA AA  returns 0xFFFFFFFF (0003ms, 137980ms total)
T050C 6793:575 JLINK_ReadMemEx(0x20000058, 0x0004 Bytes, ..., Flags = 0x02000000) -- CPU_ReadMem(4 bytes @ 0x20000058) - Data: AA AA AA AA  returns 0xFFFFFFFF (0002ms, 137982ms total)
T050C 6793:583 JLINK_ReadMemEx(0x00000000, 0x003C Bytes, ..., Flags = 0x02000000) -- CPU_ReadMem(4 bytes @ 0x00000004) -- CPU_ReadMem(60 bytes @ 0x08000000) - Data: AA AA AA AA AA AA AA AA AA AA AA AA AA AA AA AA ...  returns 0xFFFFFFFF (0005ms, 137987ms total)
T050C 6793:588 JLINK_ReadMemEx(0x00000000, 0x003C Bytes, ..., Flags = 0x02000000) -- CPU_ReadMem(60 bytes @ 0x08000000) - Data: AA AA AA AA AA AA AA AA AA AA AA AA AA AA AA AA ...  returns 0xFFFFFFFF (0003ms, 137990ms total)
T050C 6793:591 JLINK_ReadMemEx(0x00000000, 0x003C Bytes, ..., Flags = 0x02000000) -- CPU_ReadMem(60 bytes @ 0x08000000) - Data: AA AA AA AA AA AA AA AA AA AA AA AA AA AA AA AA ...  returns 0xFFFFFFFF (0003ms, 137993ms total)
T050C 6793:594 JLINK_ReadMemEx(0x00000002, 0x0002 Bytes, ..., Flags = 0x02000000) -- CPU_ReadMem(2 bytes @ 0x08000002) - Data: AA AA  returns 0xFFFFFFFF (0002ms, 137995ms total)
T050C 6793:596 JLINK_ReadMemEx(0x00000002, 0x0002 Bytes, ..., Flags = 0x02000000) -- CPU_ReadMem(2 bytes @ 0x08000002) - Data: AA AA  returns 0xFFFFFFFF (0002ms, 137997ms total)
T050C 6793:598 JLINK_ReadMemEx(0x00000002, 0x0002 Bytes, ..., Flags = 0x02000000) -- CPU_ReadMem(2 bytes @ 0x08000002) - Data: AA AA  returns 0xFFFFFFFF (0002ms, 137999ms total)
T050C 6793:600 JLINK_ReadMemEx(0x00000004, 0x003C Bytes, ..., Flags = 0x02000000) -- CPU_ReadMem(60 bytes @ 0x08000004) - Data: AA AA AA AA AA AA AA AA AA AA AA AA AA AA AA AA ...  returns 0xFFFFFFFF (0003ms, 138002ms total)
T050C 6793:603 JLINK_ReadMemEx(0x00000004, 0x003C Bytes, ..., Flags = 0x02000000) -- CPU_ReadMem(60 bytes @ 0x08000004) - Data: AA AA AA AA AA AA AA AA AA AA AA AA AA AA AA AA ...  returns 0xFFFFFFFF (0003ms, 138005ms total)
T050C 6793:606 JLINK_ReadMemEx(0x00000004, 0x003C Bytes, ..., Flags = 0x02000000) -- CPU_ReadMem(60 bytes @ 0x08000004) - Data: AA AA AA AA AA AA AA AA AA AA AA AA AA AA AA AA ...  returns 0xFFFFFFFF (0003ms, 138008ms total)
T050C 6793:609 JLINK_ReadMemEx(0x00000006, 0x0002 Bytes, ..., Flags = 0x02000000) -- CPU_ReadMem(2 bytes @ 0x08000006) - Data: AA AA  returns 0xFFFFFFFF (0002ms, 138010ms total)
T050C 6793:611 JLINK_ReadMemEx(0x00000006, 0x0002 Bytes, ..., Flags = 0x02000000) -- CPU_ReadMem(2 bytes @ 0x08000006) - Data: AA AA  returns 0xFFFFFFFF (0002ms, 138012ms total)
T050C 6793:613 JLINK_ReadMemEx(0x00000006, 0x0002 Bytes, ..., Flags = 0x02000000) -- CPU_ReadMem(2 bytes @ 0x08000006) - Data: AA AA  returns 0xFFFFFFFF (0002ms, 138014ms total)
T050C 6793:615 JLINK_ReadMemEx(0x00000008, 0x003C Bytes, ..., Flags = 0x02000000) -- CPU_ReadMem(60 bytes @ 0x08000008) - Data: AA AA AA AA AA AA AA AA AA AA AA AA AA AA AA AA ...  returns 0xFFFFFFFF (0003ms, 138017ms total)
T050C 6793:618 JLINK_ReadMemEx(0x00000008, 0x003C Bytes, ..., Flags = 0x02000000) -- CPU_ReadMem(60 bytes @ 0x08000008) - Data: AA AA AA AA AA AA AA AA AA AA AA AA AA AA AA AA ...  returns 0xFFFFFFFF (0003ms, 138020ms total)
T050C 6793:621 JLINK_ReadMemEx(0x00000008, 0x003C Bytes, ..., Flags = 0x02000000) -- CPU_ReadMem(60 bytes @ 0x08000008) - Data: AA AA AA AA AA AA AA AA AA AA AA AA AA AA AA AA ...  returns 0xFFFFFFFF (0003ms, 138023ms total)
T050C 6793:624 JLINK_ReadMemEx(0x0000000A, 0x0002 Bytes, ..., Flags = 0x02000000) -- CPU_ReadMem(2 bytes @ 0x0800000A) - Data: AA AA  returns 0xFFFFFFFF (0003ms, 138026ms total)
T050C 6793:627 JLINK_ReadMemEx(0x0000000A, 0x0002 Bytes, ..., Flags = 0x02000000) -- CPU_ReadMem(2 bytes @ 0x0800000A) - Data: AA AA  returns 0xFFFFFFFF (0002ms, 138028ms total)
T050C 6793:629 JLINK_ReadMemEx(0x0000000A, 0x0002 Bytes, ..., Flags = 0x02000000) -- CPU_ReadMem(2 bytes @ 0x0800000A) - Data: AA AA  returns 0xFFFFFFFF (0002ms, 138030ms total)
T050C 6793:631 JLINK_ReadMemEx(0x0000000C, 0x003C Bytes, ..., Flags = 0x02000000) -- CPU_ReadMem(60 bytes @ 0x0800000C) - Data: AA AA AA AA AA AA AA AA AA AA AA AA AA AA AA AA ...  returns 0xFFFFFFFF (0003ms, 138033ms total)
T050C 6793:634 JLINK_ReadMemEx(0x0000000C, 0x003C Bytes, ..., Flags = 0x02000000) -- CPU_ReadMem(60 bytes @ 0x0800000C) - Data: AA AA AA AA AA AA AA AA AA AA AA AA AA AA AA AA ...  returns 0xFFFFFFFF (0003ms, 138036ms total)
T050C 6793:637 JLINK_ReadMemEx(0x0000000C, 0x003C Bytes, ..., Flags = 0x02000000) -- CPU_ReadMem(60 bytes @ 0x0800000C) - Data: AA AA AA AA AA AA AA AA AA AA AA AA AA AA AA AA ...  returns 0xFFFFFFFF (0003ms, 138039ms total)
T050C 6793:640 JLINK_ReadMemEx(0x0000000E, 0x0002 Bytes, ..., Flags = 0x02000000) -- CPU_ReadMem(2 bytes @ 0x0800000E) - Data: AA AA  returns 0xFFFFFFFF (0002ms, 138041ms total)
T050C 6793:642 JLINK_ReadMemEx(0x0000000E, 0x0002 Bytes, ..., Flags = 0x02000000) -- CPU_ReadMem(2 bytes @ 0x0800000E) - Data: AA AA  returns 0xFFFFFFFF (0002ms, 138043ms total)
T050C 6793:644 JLINK_ReadMemEx(0x0000000E, 0x0002 Bytes, ..., Flags = 0x02000000) -- CPU_ReadMem(2 bytes @ 0x0800000E) - Data: AA AA  returns 0xFFFFFFFF (0002ms, 138045ms total)
T050C 6793:646 JLINK_ReadMemEx(0x00000010, 0x003C Bytes, ..., Flags = 0x02000000) -- CPU_ReadMem(60 bytes @ 0x08000010) - Data: AA AA AA AA AA AA AA AA AA AA AA AA AA AA AA AA ...  returns 0xFFFFFFFF (0003ms, 138048ms total)
T050C 6793:649 JLINK_ReadMemEx(0x00000010, 0x003C Bytes, ..., Flags = 0x02000000) -- CPU_ReadMem(60 bytes @ 0x08000010) - Data: AA AA AA AA AA AA AA AA AA AA AA AA AA AA AA AA ...  returns 0xFFFFFFFF (0003ms, 138051ms total)
T050C 6793:652 JLINK_ReadMemEx(0x00000010, 0x003C Bytes, ..., Flags = 0x02000000) -- CPU_ReadMem(60 bytes @ 0x08000010) - Data: AA AA AA AA AA AA AA AA AA AA AA AA AA AA AA AA ...  returns 0xFFFFFFFF (0005ms, 138056ms total)
T050C 6793:657 JLINK_ReadMemEx(0x00000012, 0x0002 Bytes, ..., Flags = 0x02000000) -- CPU_ReadMem(2 bytes @ 0x08000012) - Data: AA AA  returns 0xFFFFFFFF (0002ms, 138058ms total)
T050C 6793:659 JLINK_ReadMemEx(0x00000012, 0x0002 Bytes, ..., Flags = 0x02000000) -- CPU_ReadMem(2 bytes @ 0x08000012) - Data: AA AA  returns 0xFFFFFFFF (0002ms, 138060ms total)
T050C 6793:661 JLINK_ReadMemEx(0x00000012, 0x0002 Bytes, ..., Flags = 0x02000000) -- CPU_ReadMem(2 bytes @ 0x08000012) - Data: AA AA  returns 0xFFFFFFFF (0002ms, 138062ms total)
T050C 6793:663 JLINK_ReadMemEx(0x00000014, 0x003C Bytes, ..., Flags = 0x02000000) -- CPU_ReadMem(60 bytes @ 0x08000014) - Data: AA AA AA AA AA AA AA AA AA AA AA AA AA AA AA AA ...  returns 0xFFFFFFFF (0003ms, 138065ms total)
